LTspice 24.0.12 for Windows
Circuit: * C:\Users\KVentayen\OneDrive - California State University Chico\Desktop\Capstone\assets\Draft1.asc
Start Time: Sun Feb 23 18:19:50 2025
solver = Normal
Maximum thread count: 8



Direct Newton iteration for .op point succeeded.
Semiconductor Device Operating Points:
                        --- Diodes ---
Name:    d:u1:c      d:u1:e      d:u1:lp     d:u1:ln     d:u1:p
Model:    u1:dx       u1:dx       u1:dx       u1:dx       u1:dx
Id:     -1.26e-12    1.01e-04   -2.43e-11   -2.57e-11   -5.00e-12
Vd:     -1.26e+00    6.61e-01   -2.43e+01   -2.57e+01   -5.00e+00
Req:     1.00e+12    2.57e+02    1.00e+12    1.00e+12    1.00e+12
CAP:     0.00e+00    0.00e+00    0.00e+00    0.00e+00    0.00e+00

                        --- JFET Transistors ---
Name:    j:u1:1      j:u1:2
Model:    u1:jx       u1:jx
Id:     -1.43e-06   -1.08e-04
Vgs:     9.27e-01   -4.03e-01
Vds:    -5.30e-01   -1.52e-01
Gm:      3.93e-05    8.19e-05
Gds:     0.00e+00    6.76e-04
Cgs:     0.00e+00    0.00e+00
Cgd:     0.00e+00    0.00e+00




















































































































































































































































































































































































































































































































































































































































































































































































































































































































































































































































































































































































































































































































































































































































































































































































































































































































































































































































































































































































































































































































































































































































































































































































































































































































































































































































































































































































































































































































































































































































































































tnom = 27
temp = 27
method = modified trap
Total elapsed time: 23.191 seconds.

